
**** 11/17/25 20:40:59 *** PSpice 25.1.0 (14 September 2025) ** ID# 0 ********

 ** Profile: "SCHEMATIC1-Q4"  [ C:\Users\Zaid\OneDrive\Desktop\College\Circuit Theory Assignment\Q4\Q4-PSpiceFiles\SCHEMATIC1\Q4.sim 


 ****     CIRCUIT DESCRIPTION


******************************************************************************




** Creating circuit file "Q4.cir" 
** WARNING: THIS AUTOMATICALLY GENERATED FILE MAY BE OVERWRITTEN BY SUBSEQUENT SIMULATIONS

*Libraries: 
* Profile Libraries :
* Local Libraries :
* From [PSPICE NETLIST] section of C:\Users\Zaid\AppData\Roaming\SPB_Data\cdssetup\OrCAD_PSpice\25.1.0\PSpice.ini file:
.lib "nom.lib" 

*Analysis directives: 
.TRAN  0 100u 0 100n 
.OPTIONS ADVCONV
.PROBE64 V(alias(*)) I(alias(*)) W(alias(*)) D(alias(*)) NOISE(alias(*)) 
.INC "..\SCHEMATIC1.net" 



**** INCLUDING SCHEMATIC1.net ****
* source Q4
R_R1         N00170 N00177  12k TC=0,0 
R_R2         N00177 N00190  2k TC=0,0 
R_R3         N00190 N00204  10k TC=0,0 
R_R4         0 N00177  24k TC=0,0 
R_R5         0 N00204  1k TC=0,0 
I_I1         N00190 0 DC 3mAdc  
V_V1         N00170 0 36Vdc

**** RESUMING Q4.cir ****
.END

**** 11/17/25 20:40:59 *** PSpice 25.1.0 (14 September 2025) ** ID# 0 ********

 ** Profile: "SCHEMATIC1-Q4"  [ C:\Users\Zaid\OneDrive\Desktop\College\Circuit Theory Assignment\Q4\Q4-PSpiceFiles\SCHEMATIC1\Q4.sim 


 ****     INITIAL TRANSIENT SOLUTION       TEMPERATURE =   27.000 DEG C


******************************************************************************



 NODE   VOLTAGE     NODE   VOLTAGE     NODE   VOLTAGE     NODE   VOLTAGE


(N00170)   36.0000 (N00177)    2.2857 (N00190)   -3.1429 (N00204)    -.2857 




    VOLTAGE SOURCE CURRENTS
    NAME         CURRENT

    V_V1        -2.810E-03

    TOTAL POWER DISSIPATION   1.01E-01  WATTS



          JOB CONCLUDED

**** 11/17/25 20:40:59 *** PSpice 25.1.0 (14 September 2025) ** ID# 0 ********

 ** Profile: "SCHEMATIC1-Q4"  [ C:\Users\Zaid\OneDrive\Desktop\College\Circuit Theory Assignment\Q4\Q4-PSpiceFiles\SCHEMATIC1\Q4.sim 


 ****     JOB STATISTICS SUMMARY


******************************************************************************



  Total job time (using Solver 1)   =         .13
