
**** 11/17/25 20:12:22 *** PSpice 25.1.0 (14 September 2025) ** ID# 0 ********

 ** Profile: "SCHEMATIC1-Q2"  [ C:\Users\Zaid\OneDrive\Desktop\College\Circuit Theory Assignment\Q2\Q2_Assignment-PSpiceFiles\Q2-PSpi


 ****     CIRCUIT DESCRIPTION


******************************************************************************




** Creating circuit file "Q2.cir" 
** WARNING: THIS AUTOMATICALLY GENERATED FILE MAY BE OVERWRITTEN BY SUBSEQUENT SIMULATIONS

*Libraries: 
* Profile Libraries :
* Local Libraries :
* From [PSPICE NETLIST] section of C:\Users\Zaid\AppData\Roaming\SPB_Data\cdssetup\OrCAD_PSpice\25.1.0\PSpice.ini file:
.lib "nom.lib" 

*Analysis directives: 
.OPTIONS ADVCONV
.PROBE64 V(alias(*)) I(alias(*)) W(alias(*)) D(alias(*)) NOISE(alias(*)) 
.INC "..\SCHEMATIC1.net" 



**** INCLUDING SCHEMATIC1.net ****
* source Q2
R_R1         N00172 N00181  2.5 TC=0,0 
R_R2         N00181 N00216  6 TC=0,0 
R_R3         0 N00181  15 TC=0,0 
R_R4         0 N00216  20 TC=0,0 
R_R5         N00181 0  60 TC=0,0 
R_R6         N00216 0  80 TC=0,0 
R_R7         N00181 N00216  12 TC=0,0 
V_V1         N00172 0 1Vdc

**** RESUMING Q2.cir ****
.END

**** 11/17/25 20:12:22 *** PSpice 25.1.0 (14 September 2025) ** ID# 0 ********

 ** Profile: "SCHEMATIC1-Q2"  [ C:\Users\Zaid\OneDrive\Desktop\College\Circuit Theory Assignment\Q2\Q2_Assignment-PSpiceFiles\Q2-PSpi


 ****     SMALL SIGNAL BIAS SOLUTION       TEMPERATURE =   27.000 DEG C


******************************************************************************



 NODE   VOLTAGE     NODE   VOLTAGE     NODE   VOLTAGE     NODE   VOLTAGE


(N00172)    1.0000 (N00181)     .7500 (N00216)     .6000 




    VOLTAGE SOURCE CURRENTS
    NAME         CURRENT

    V_V1        -1.000E-01

    TOTAL POWER DISSIPATION   1.00E-01  WATTS



          JOB CONCLUDED

**** 11/17/25 20:12:22 *** PSpice 25.1.0 (14 September 2025) ** ID# 0 ********

 ** Profile: "SCHEMATIC1-Q2"  [ C:\Users\Zaid\OneDrive\Desktop\College\Circuit Theory Assignment\Q2\Q2_Assignment-PSpiceFiles\Q2-PSpi


 ****     JOB STATISTICS SUMMARY


******************************************************************************



  Total job time (using Solver 1)   =        0.00
