
**** 11/17/25 20:19:59 *** PSpice 25.1.0 (14 September 2025) ** ID# 0 ********

 ** Profile: "SCHEMATIC1-Q3"  [ C:\Users\Zaid\OneDrive\Desktop\College\Circuit Theory Assignment\Q3\Q3-PSpiceFiles\SCHEMATIC1\Q3.sim 


 ****     CIRCUIT DESCRIPTION


******************************************************************************




** Creating circuit file "Q3.cir" 
** WARNING: THIS AUTOMATICALLY GENERATED FILE MAY BE OVERWRITTEN BY SUBSEQUENT SIMULATIONS

*Libraries: 
* Profile Libraries :
* Local Libraries :
* From [PSPICE NETLIST] section of C:\Users\Zaid\AppData\Roaming\SPB_Data\cdssetup\OrCAD_PSpice\25.1.0\PSpice.ini file:
.lib "nom.lib" 

*Analysis directives: 
.OPTIONS ADVCONV
.PROBE64 V(alias(*)) I(alias(*)) W(alias(*)) D(alias(*)) NOISE(alias(*)) 
.INC "..\SCHEMATIC1.net" 



**** INCLUDING SCHEMATIC1.net ****
* source Q3
I_I1         0 N00156 DC 3Adc  
R_R1         N00156 N00259  4 TC=0,0 
R_R2         0 N00156  16 TC=0,0 
R_R3         N00259 N00274  1 TC=0,0 
R_R4         N00215 N00259  5 TC=0,0 
R_R5         0 N00274  10 TC=0,0 
V_V1         N00215 0 12Vdc

**** RESUMING Q3.cir ****
.END

**** 11/17/25 20:19:59 *** PSpice 25.1.0 (14 September 2025) ** ID# 0 ********

 ** Profile: "SCHEMATIC1-Q3"  [ C:\Users\Zaid\OneDrive\Desktop\College\Circuit Theory Assignment\Q3\Q3-PSpiceFiles\SCHEMATIC1\Q3.sim 


 ****     SMALL SIGNAL BIAS SOLUTION       TEMPERATURE =   27.000 DEG C


******************************************************************************



 NODE   VOLTAGE     NODE   VOLTAGE     NODE   VOLTAGE     NODE   VOLTAGE


(N00156)   20.8640 (N00215)   12.0000 (N00259)   14.0800 (N00274)   12.8000 




    VOLTAGE SOURCE CURRENTS
    NAME         CURRENT

    V_V1         4.160E-01

    TOTAL POWER DISSIPATION  -4.99E+00  WATTS



          JOB CONCLUDED

**** 11/17/25 20:19:59 *** PSpice 25.1.0 (14 September 2025) ** ID# 0 ********

 ** Profile: "SCHEMATIC1-Q3"  [ C:\Users\Zaid\OneDrive\Desktop\College\Circuit Theory Assignment\Q3\Q3-PSpiceFiles\SCHEMATIC1\Q3.sim 


 ****     JOB STATISTICS SUMMARY


******************************************************************************



  Total job time (using Solver 1)   =         .03
